
TA3DC 000:288 SEGGER J-Link V5.10h Log File (0001ms, 0269ms total)
TA3DC 000:288 DLL Compiled: Jan 21 2016 19:24:29 (0001ms, 0269ms total)
TA3DC 000:288 Logging started @ 2025-10-19 17:31 (0001ms, 0269ms total)
TA3DC 000:289 JLINK_SetWarnOutHandler(...) (0000ms, 0269ms total)
TA3DC 000:289 JLINK_OpenEx(...)
Firmware: J-Link V9 compiled May  7 2021 16:26:12
Hardware: V9.40
S/N: 69406074
Feature(s): RDI, GDB, FlashDL, FlashBP, JFlash  returns O.K. (0266ms, 0535ms total)
TA3DC 000:555 JLINK_SetErrorOutHandler(...) (0000ms, 0535ms total)
TA3DC 000:555 JLINK_ExecCommand("ProjectFile = "C:\Users\86137\Desktop\STM32.GITHUB\Learn_STM32\STM32F103RC\harware study\I2C STRUCTURE SSD1306\PROJECT\JLinkSettings.ini"", ...)  returns 0x00 (0001ms, 0536ms total)
TA3DC 000:556 JLINK_ExecCommand("Device = STM32F103RC", ...)Device "STM32F103RC" selected.  returns 0x00 (0000ms, 0536ms total)
TA3DC 000:556 JLINK_ExecCommand("DisableConnectionTimeout", ...)  returns 0x01 (0000ms, 0536ms total)
TA3DC 000:556 JLINK_GetHardwareVersion()  returns 0x16F30 (0000ms, 0536ms total)
TA3DC 000:556 JLINK_GetDLLVersion()  returns 51008 (0000ms, 0536ms total)
TA3DC 000:556 JLINK_GetFirmwareString(...) (0000ms, 0536ms total)
TA3DC 000:557 JLINK_GetDLLVersion()  returns 51008 (0000ms, 0536ms total)
TA3DC 000:557 JLINK_GetCompileDateTime() (0000ms, 0536ms total)
TA3DC 000:557 JLINK_GetFirmwareString(...) (0000ms, 0536ms total)
TA3DC 000:557 JLINK_GetHardwareVersion()  returns 0x16F30 (0000ms, 0536ms total)
TA3DC 000:558 JLINK_TIF_Select(JLINKARM_TIF_JTAG)  returns 0x00 (0001ms, 0537ms total)
TA3DC 000:559 JLINK_SetSpeed(5000) (0000ms, 0537ms total)
TA3DC 000:559 JLINK_GetIdData(...) >0x2F8 JTAG>TotalIRLen = 9, IRPrint = 0x0011 >0x30 JTAG> >0x210 JTAG> >0x40 JTAG> >0x40 JTAG> >0x40 JTAG> >0x30 JTAG> >0x40 JTAG> >0x40 JTAG> >0x40 JTAG> >0x40 JTAG> >0x40 JTAG> >0x40 JTAG> >0x40 JTAG> >0x40 JTAG> >0x40 JTAG> >0x40 JTAG> >0x40 JTAG> >0x40 JTAG> >0x40 JTAG> >0x40 JTAG> >0x2F8 JTAG>TotalIRLen = 9, IRPrint = 0x0011 >0x30 JTAG> >0x210 JTAG> >0x70 JTAG> >0x50 JTAG> >0x40 JTAG> >0x50 JTAG> >0x80 JTAG> >0x40 JTAG> >0x30 JTAG> >0x40 JTAG> >0x40 JTAG>
 >0x30 JTAG> >0x40 JTAG> >0x50 JTAG>Found Cortex-M3 r1p1, Little endian. -- CPU_ReadMem(4 bytes @ 0xE000EDF0) -- CPU_ReadMem(4 bytes @ 0xE0002000)FPUnit: 6 code (BP) slots and 2 literal slots -- CPU_ReadMem(4 bytes @ 0xE000EDFC) -- CPU_ReadMem(4 bytes @ 0xE0001000) -- CPU_WriteMem(4 bytes @ 0xE0001000) -- CPU_ReadMem(4 bytes @ 0xE000ED88) -- CPU_WriteMem(4 bytes @ 0xE000ED88) -- CPU_ReadMem(4 bytes @ 0xE000ED88) -- CPU_WriteMem(4 bytes @ 0xE000ED88)CoreSight components:ROMTbl 0 @ E00FF000
 -- CPU_ReadMem(16 bytes @ 0xE00FF000) -- CPU_ReadMem(16 bytes @ 0xE000EFF0) -- CPU_ReadMem(16 bytes @ 0xE000EFE0)ROMTbl 0 [0]: FFF0F000, CID: B105E00D, PID: 001BB000 SCS -- CPU_ReadMem(16 bytes @ 0xE0001FF0) -- CPU_ReadMem(16 bytes @ 0xE0001FE0)ROMTbl 0 [1]: FFF02000, CID: B105E00D, PID: 001BB002 DWT -- CPU_ReadMem(16 bytes @ 0xE0002FF0) -- CPU_ReadMem(16 bytes @ 0xE0002FE0)ROMTbl 0 [2]: FFF03000, CID: B105E00D, PID: 000BB003 FPB -- CPU_ReadMem(16 bytes @ 0xE0000FF0)
 -- CPU_ReadMem(16 bytes @ 0xE0000FE0)ROMTbl 0 [3]: FFF01000, CID: B105E00D, PID: 001BB001 ITM -- CPU_ReadMem(16 bytes @ 0xE00FF010) -- CPU_ReadMem(16 bytes @ 0xE0040FF0) -- CPU_ReadMem(16 bytes @ 0xE0040FE0)ROMTbl 0 [4]: FFF41000, CID: B105900D, PID: 001BB923 TPIU-Lite -- CPU_ReadMem(16 bytes @ 0xE0041FF0) -- CPU_ReadMem(16 bytes @ 0xE0041FE0)ROMTbl 0 [5]: FFF42000, CID: B105900D, PID: 101BB924 ETM-M3 ScanLen=9 NumDevices=2 aId[0]=0x3BA00477 aIrRead[0]=0 aScanLen[0]=0 aScanRead[0]=0
 (0027ms, 0564ms total)
TA3DC 000:586 JLINK_JTAG_GetDeviceID(DeviceIndex = 0)  returns 0x3BA00477 (0000ms, 0564ms total)
TA3DC 000:586 JLINK_JTAG_GetDeviceInfo(DeviceIndex = 0)  returns 0x00 (0000ms, 0564ms total)
TA3DC 000:586 JLINK_JTAG_GetDeviceID(DeviceIndex = 1)  returns 0x6414041 (0000ms, 0564ms total)
TA3DC 000:586 JLINK_JTAG_GetDeviceInfo(DeviceIndex = 1)  returns 0x00 (0000ms, 0564ms total)
TA3DC 000:586 JLINK_GetDLLVersion()  returns 51008 (0000ms, 0564ms total)
TA3DC 000:586 JLINK_CORE_GetFound()  returns 0x30000FF (0001ms, 0565ms total)
TA3DC 000:587 JLINK_GetDebugInfo(0x100) -- Value=0xE00FF003  returns 0x00 (0000ms, 0565ms total)
TA3DC 000:587 JLINK_GetDebugInfo(0x100) -- Value=0xE00FF003  returns 0x00 (0000ms, 0565ms total)
TA3DC 000:587 JLINK_GetDebugInfo(0x101) -- Value=0xE0041000  returns 0x00 (0000ms, 0565ms total)
TA3DC 000:587 JLINK_GetDebugInfo(0x102) -- Value=0x00000000  returns 0x00 (0000ms, 0565ms total)
TA3DC 000:587 JLINK_GetDebugInfo(0x103) -- Value=0xE0040000  returns 0x00 (0000ms, 0565ms total)
TA3DC 000:587 JLINK_GetDebugInfo(0x104) -- Value=0xE0000000  returns 0x00 (0000ms, 0565ms total)
TA3DC 000:587 JLINK_GetDebugInfo(0x105) -- Value=0xE0001000  returns 0x00 (0000ms, 0565ms total)
TA3DC 000:587 JLINK_GetDebugInfo(0x106) -- Value=0xE0002000  returns 0x00 (0000ms, 0565ms total)
TA3DC 000:587 JLINK_GetDebugInfo(0x107) -- Value=0xE000E000  returns 0x00 (0000ms, 0565ms total)
TA3DC 000:587 JLINK_GetDebugInfo(0x10C) -- Value=0xE000EDF0  returns 0x00 (0000ms, 0565ms total)
TA3DC 000:587 JLINK_ReadMemU32(0xE000ED00, 0x0001 Items, ...) -- CPU is running -- CPU_ReadMem(4 bytes @ 0xE000ED00) - Data: 31 C2 1F 41  returns 0x01 (0000ms, 0565ms total)
TA3DC 000:587 JLINK_SetResetType(JLINKARM_RESET_TYPE_NORMAL)  returns JLINKARM_RESET_TYPE_NORMAL (0000ms, 0565ms total)
TA3DC 000:587 JLINK_Reset() -- CPU is running -- CPU_WriteMem(4 bytes @ 0xE000EDF0) -- CPU is running -- CPU_WriteMem(4 bytes @ 0xE000EDFC) -- CPU is running -- CPU_WriteMem(4 bytes @ 0xE000ED0C) -- CPU is running -- CPU_ReadMem(4 bytes @ 0xE000EDF0) -- CPU is running -- CPU_ReadMem(4 bytes @ 0xE000EDF0) -- CPU is running -- CPU_WriteMem(4 bytes @ 0xE000EDF0) -- CPU is running -- CPU_WriteMem(4 bytes @ 0xE000EDFC) -- CPU is running -- CPU_ReadMem(4 bytes @ 0xE000EDF0) >0x80 JTAG> >0x40 JTAG> >0x30 JTAG>
 >0x40 JTAG> >0x50 JTAG> >0x40 JTAG> -- CPU_WriteMem(4 bytes @ 0xE000EDFC) -- CPU_WriteMem(4 bytes @ 0xE0001028) -- CPU_WriteMem(4 bytes @ 0xE0001038) -- CPU_WriteMem(4 bytes @ 0xE0001048) -- CPU_WriteMem(4 bytes @ 0xE0001058) -- CPU_WriteMem(4 bytes @ 0xE0002000) -- CPU_ReadMem(4 bytes @ 0xE000EDFC) -- CPU_ReadMem(4 bytes @ 0xE0001000) (0022ms, 0587ms total)
TA3DC 000:609 JLINK_ReadReg(R15 (PC))  returns 0x080001B0 (0000ms, 0587ms total)
TA3DC 000:609 JLINK_ReadReg(XPSR)  returns 0x01000000 (0000ms, 0587ms total)
TA3DC 000:609 JLINK_Halt()  returns 0x00 (0000ms, 0587ms total)
TA3DC 000:609 JLINK_IsHalted()  returns TRUE (0000ms, 0587ms total)
TA3DC 000:609 JLINK_ReadMemU32(0xE000EDF0, 0x0001 Items, ...) -- CPU_ReadMem(4 bytes @ 0xE000EDF0) - Data: 03 00 03 00  returns 0x01 (0000ms, 0587ms total)
TA3DC 000:609 JLINK_WriteU32(0xE000EDF0, 0xA05F0003) -- CPU_WriteMem(4 bytes @ 0xE000EDF0)  returns 0x00 (0001ms, 0588ms total)
TA3DC 000:610 JLINK_WriteU32(0xE000EDFC, 0x01000000) -- CPU_WriteMem(4 bytes @ 0xE000EDFC)  returns 0x00 (0000ms, 0588ms total)
TA3DC 000:612 JLINK_GetHWStatus(...)  returns 0x00 (0000ms, 0588ms total)
TA3DC 000:612 JLINK_GetNumBPUnits(Type = 0xFFFFFF00)  returns 0x06 (0000ms, 0588ms total)
TA3DC 000:612 JLINK_GetNumBPUnits(Type = 0xF0)  returns 0x2000 (0000ms, 0588ms total)
TA3DC 000:612 JLINK_GetNumWPUnits()  returns 0x04 (0000ms, 0588ms total)
TA3DC 000:613 JLINK_GetSpeed()  returns 0x1366 (0000ms, 0588ms total)
TA3DC 000:613 JLINK_ReadMemU32(0xE000E004, 0x0001 Items, ...) -- CPU_ReadMem(4 bytes @ 0xE000E004) - Data: 01 00 00 00  returns 0x01 (0000ms, 0588ms total)
TA3DC 000:613 JLINK_ReadMemU32(0xE000E004, 0x0001 Items, ...) -- CPU_ReadMem(4 bytes @ 0xE000E004) - Data: 01 00 00 00  returns 0x01 (0001ms, 0589ms total)
TA3DC 000:614 JLINK_WriteMem(0xE0001000, 0x001C Bytes, ...) - Data: 01 00 00 00 00 00 00 00 00 00 00 00 00 00 00 00 ... -- CPU_WriteMem(28 bytes @ 0xE0001000)  returns 0x1C (0000ms, 0589ms total)
TA3DC 000:614 JLINK_ReadMem (0xE0001000, 0x001C Bytes, ...) -- CPU_ReadMem(28 bytes @ 0xE0001000) - Data: 01 00 00 40 00 00 00 00 00 00 00 00 00 00 00 00 ...  returns 0x00 (0001ms, 0590ms total)
TA3DC 000:615 JLINK_ReadReg(R15 (PC))  returns 0x080001B0 (0000ms, 0590ms total)
TA3DC 000:615 JLINK_ReadReg(XPSR)  returns 0x01000000 (0000ms, 0590ms total)
TA3DC 000:681 JLINK_SetResetType(JLINKARM_RESET_TYPE_NORMAL)  returns JLINKARM_RESET_TYPE_NORMAL (0000ms, 0590ms total)
TA3DC 000:681 JLINK_Reset() -- CPU_WriteMem(4 bytes @ 0xE000EDF0) -- CPU_WriteMem(4 bytes @ 0xE000EDFC) -- CPU_WriteMem(4 bytes @ 0xE000ED0C) -- CPU_ReadMem(4 bytes @ 0xE000EDF0) -- CPU_ReadMem(4 bytes @ 0xE000EDF0) -- CPU_WriteMem(4 bytes @ 0xE000EDF0) -- CPU_WriteMem(4 bytes @ 0xE000EDFC) -- CPU is running -- CPU_ReadMem(4 bytes @ 0xE000EDF0) >0x80 JTAG> >0x40 JTAG> >0x30 JTAG> >0x40 JTAG> >0x50 JTAG> >0x40 JTAG> -- CPU_WriteMem(4 bytes @ 0xE000EDFC) -- CPU_WriteMem(4 bytes @ 0xE0001028)
 -- CPU_WriteMem(4 bytes @ 0xE0001038) -- CPU_WriteMem(4 bytes @ 0xE0001048) -- CPU_WriteMem(4 bytes @ 0xE0001058) -- CPU_WriteMem(4 bytes @ 0xE0002000) -- CPU_ReadMem(4 bytes @ 0xE000EDFC) -- CPU_ReadMem(4 bytes @ 0xE0001000) (0023ms, 0613ms total)
TA3DC 000:704 JLINK_ReadReg(R15 (PC))  returns 0x080001B0 (0000ms, 0613ms total)
TA3DC 000:704 JLINK_ReadReg(XPSR)  returns 0x01000000 (0000ms, 0613ms total)
TA3DC 000:705 JLINK_ReadMem (0x08000130, 0x003C Bytes, ...) -- CPU_ReadMem(128 bytes @ 0x08000100) -- Updating C cache (128 bytes @ 0x08000100) -- Read from C cache (60 bytes @ 0x08000130) - Data: 00 F0 02 F8 00 F0 2C F8 0A A0 90 E8 00 0C 82 44 ...  returns 0x00 (0002ms, 0615ms total)
TA3DC 000:707 JLINK_ReadMem (0x0800016C, 0x003C Bytes, ...) -- CPU_ReadMem(64 bytes @ 0x08000180) -- Updating C cache (64 bytes @ 0x08000180) -- Read from C cache (60 bytes @ 0x0800016C) - Data: 00 23 00 24 00 25 00 26 10 3A 28 BF 78 C1 FB D8 ...  returns 0x00 (0001ms, 0616ms total)
TA3DC 000:708 JLINK_ReadMem (0x080001A8, 0x003C Bytes, ...) -- CPU_ReadMem(64 bytes @ 0x080001C0) -- Updating C cache (64 bytes @ 0x080001C0) -- Read from C cache (60 bytes @ 0x080001A8) - Data: 03 BC 00 F0 57 F8 00 00 09 48 80 47 09 48 00 47 ...  returns 0x00 (0001ms, 0617ms total)
TA3DC 000:782 JLINK_ReadMem (0x40010800, 0x000C Bytes, ...) -- CPU_ReadMem(12 bytes @ 0x40010800) - Data: 44 44 44 44 44 44 84 88 00 00 00 00  returns 0x00 (0000ms, 0617ms total)
TA3DC 000:782 JLINK_ReadMem (0x4001080C, 0x0004 Bytes, ...) -- CPU_ReadMem(4 bytes @ 0x4001080C) - Data: 00 A0 00 00  returns 0x00 (0000ms, 0617ms total)
TA3DC 000:782 JLINK_ReadMem (0x40010818, 0x0004 Bytes, ...) -- CPU_ReadMem(4 bytes @ 0x40010818) - Data: 00 00 00 00  returns 0x00 (0002ms, 0619ms total)
TA3DC 000:828 JLINK_ReadMem (0x40021000, 0x0024 Bytes, ...) -- CPU_ReadMem(36 bytes @ 0x40021000) - Data: 83 5C 00 00 00 00 00 00 00 00 00 00 00 00 00 00 ...  returns 0x00 (0001ms, 0620ms total)
TA3DC 000:829 JLINK_ReadMem (0x40021024, 0x0004 Bytes, ...) -- CPU_ReadMem(4 bytes @ 0x40021024) - Data: 00 00 00 1C  returns 0x00 (0000ms, 0620ms total)
TA5C0 001:767 JLINK_SetBPEx(Addr = 0x080006F8, Type = 0xFFFFFFF2)  returns 0x00000001 (0000ms, 0620ms total)
TA5C0 001:767 JLINK_Go() -- CPU_ReadMem(4 bytes @ 0xE0001000) -- CPU_WriteMem(4 bytes @ 0xE0002008) -- CPU_WriteMem(4 bytes @ 0xE000200C) -- CPU_WriteMem(4 bytes @ 0xE0002010) -- CPU_WriteMem(4 bytes @ 0xE0002014) -- CPU_WriteMem(4 bytes @ 0xE0002018) -- CPU_WriteMem(4 bytes @ 0xE000201C) -- CPU_WriteMem(4 bytes @ 0xE0001004) (0002ms, 0622ms total)
TA5C0 001:870 JLINK_IsHalted()  returns TRUE (0001ms, 0623ms total)
TA5C0 001:871 JLINK_Halt()  returns 0x00 (0000ms, 0622ms total)
TA5C0 001:871 JLINK_IsHalted()  returns TRUE (0000ms, 0622ms total)
TA5C0 001:871 JLINK_IsHalted()  returns TRUE (0000ms, 0622ms total)
TA5C0 001:871 JLINK_IsHalted()  returns TRUE (0000ms, 0622ms total)
TA5C0 001:871 JLINK_ReadReg(R15 (PC))  returns 0x080006F8 (0000ms, 0622ms total)
TA5C0 001:871 JLINK_ReadReg(XPSR)  returns 0x21000000 (0000ms, 0622ms total)
TA5C0 001:871 JLINK_ClrBPEx(BPHandle = 0x00000001)  returns 0x00 (0000ms, 0622ms total)
TA5C0 001:871 JLINK_ReadMemU32(0xE000ED30, 0x0001 Items, ...) -- CPU_ReadMem(4 bytes @ 0xE000ED30) - Data: 02 00 00 00  returns 0x01 (0001ms, 0623ms total)
TA5C0 001:872 JLINK_ReadMemU32(0xE0001028, 0x0001 Items, ...) -- CPU_ReadMem(4 bytes @ 0xE0001028) - Data: 00 00 00 00  returns 0x01 (0000ms, 0623ms total)
TA5C0 001:872 JLINK_ReadMemU32(0xE0001038, 0x0001 Items, ...) -- CPU_ReadMem(4 bytes @ 0xE0001038) - Data: 00 02 00 00  returns 0x01 (0000ms, 0623ms total)
TA5C0 001:872 JLINK_ReadMemU32(0xE0001048, 0x0001 Items, ...) -- CPU_ReadMem(4 bytes @ 0xE0001048) - Data: 00 00 00 00  returns 0x01 (0001ms, 0624ms total)
TA5C0 001:873 JLINK_ReadMemU32(0xE0001058, 0x0001 Items, ...) -- CPU_ReadMem(4 bytes @ 0xE0001058) - Data: 00 00 00 00  returns 0x01 (0000ms, 0624ms total)
TA5C0 001:873 JLINK_ReadReg(R0)  returns 0x20000078 (0000ms, 0624ms total)
TA5C0 001:873 JLINK_ReadReg(R1)  returns 0x20000278 (0000ms, 0624ms total)
TA5C0 001:873 JLINK_ReadReg(R2)  returns 0x20000278 (0000ms, 0624ms total)
TA5C0 001:873 JLINK_ReadReg(R3)  returns 0x20000278 (0000ms, 0624ms total)
TA5C0 001:873 JLINK_ReadReg(R4)  returns 0x00000000 (0000ms, 0624ms total)
TA5C0 001:873 JLINK_ReadReg(R5)  returns 0x20000014 (0000ms, 0624ms total)
TA5C0 001:873 JLINK_ReadReg(R6)  returns 0x00000000 (0000ms, 0624ms total)
TA5C0 001:873 JLINK_ReadReg(R7)  returns 0x00000000 (0000ms, 0624ms total)
TA5C0 001:873 JLINK_ReadReg(R8)  returns 0x00000000 (0000ms, 0624ms total)
TA5C0 001:873 JLINK_ReadReg(R9)  returns 0x20000160 (0000ms, 0624ms total)
TA5C0 001:873 JLINK_ReadReg(R10)  returns 0x08000724 (0000ms, 0624ms total)
TA5C0 001:873 JLINK_ReadReg(R11)  returns 0x00000000 (0000ms, 0624ms total)
TA5C0 001:873 JLINK_ReadReg(R12)  returns 0x20000054 (0000ms, 0624ms total)
TA5C0 001:873 JLINK_ReadReg(R13 (SP))  returns 0x20000678 (0000ms, 0624ms total)
TA5C0 001:873 JLINK_ReadReg(R14)  returns 0x0800019F (0000ms, 0624ms total)
TA5C0 001:873 JLINK_ReadReg(R15 (PC))  returns 0x080006F8 (0000ms, 0624ms total)
TA5C0 001:873 JLINK_ReadReg(XPSR)  returns 0x21000000 (0000ms, 0624ms total)
TA5C0 001:873 JLINK_ReadReg(MSP)  returns 0x20000678 (0000ms, 0624ms total)
TA5C0 001:873 JLINK_ReadReg(PSP)  returns 0x20001000 (0000ms, 0624ms total)
TA5C0 001:873 JLINK_ReadReg(CFBP)  returns 0x00000000 (0000ms, 0624ms total)
TA3DC 001:877 JLINK_ReadMem (0x40010800, 0x000C Bytes, ...) -- CPU_ReadMem(12 bytes @ 0x40010800) - Data: 44 44 44 44 44 44 84 88 00 00 00 00  returns 0x00 (0001ms, 0625ms total)
TA3DC 001:878 JLINK_ReadMem (0x4001080C, 0x0004 Bytes, ...) -- CPU_ReadMem(4 bytes @ 0x4001080C) - Data: 00 A0 00 00  returns 0x00 (0000ms, 0625ms total)
TA3DC 001:878 JLINK_ReadMem (0x40010818, 0x0004 Bytes, ...) -- CPU_ReadMem(4 bytes @ 0x40010818) - Data: 00 00 00 00  returns 0x00 (0000ms, 0625ms total)
TA3DC 001:878 JLINK_ReadMem (0x40021000, 0x0024 Bytes, ...) -- CPU_ReadMem(36 bytes @ 0x40021000) - Data: 83 5C 03 03 0A 04 1D 00 00 00 00 00 00 00 00 00 ...  returns 0x00 (0001ms, 0626ms total)
TA3DC 001:879 JLINK_ReadMem (0x40021024, 0x0004 Bytes, ...) -- CPU_ReadMem(4 bytes @ 0x40021024) - Data: 00 00 00 1C  returns 0x00 (0000ms, 0626ms total)
TA3DC 001:887 JLINK_ReadMem (0x080006F4, 0x003C Bytes, ...) -- CPU_ReadMem(128 bytes @ 0x080006C0) -- Updating C cache (128 bytes @ 0x080006C0) -- Read from C cache (60 bytes @ 0x080006F4) - Data: 00 BF FE E7 10 B5 05 48 FF F7 FA FE AF 23 00 22 ...  returns 0x00 (0001ms, 0627ms total)
TA5C0 003:077 JLINK_Step() -- Read from C cache (2 bytes @ 0x080006F8) -- CPU_ReadMem(4 bytes @ 0xE000ED18) -- CPU_WriteMem(4 bytes @ 0xE000ED18) -- CPU_ReadMem(4 bytes @ 0xE000ED18) -- CPU_WriteMem(4 bytes @ 0xE000ED18) -- CPU_ReadMem(4 bytes @ 0xE0001004) -- CPU_WriteMem(8 bytes @ 0x20000670) -- Simulated  returns 0x00 (0002ms, 0629ms total)
TA5C0 003:079 JLINK_ReadReg(R15 (PC))  returns 0x080006FA (0000ms, 0629ms total)
TA5C0 003:079 JLINK_ReadReg(XPSR)  returns 0x21000000 (0000ms, 0629ms total)
TA5C0 003:079 JLINK_ReadReg(R0)  returns 0x20000078 (0000ms, 0629ms total)
TA5C0 003:079 JLINK_ReadReg(R1)  returns 0x20000278 (0000ms, 0629ms total)
TA5C0 003:079 JLINK_ReadReg(R2)  returns 0x20000278 (0000ms, 0629ms total)
TA5C0 003:079 JLINK_ReadReg(R3)  returns 0x20000278 (0000ms, 0629ms total)
TA5C0 003:079 JLINK_ReadReg(R4)  returns 0x00000000 (0000ms, 0629ms total)
TA5C0 003:079 JLINK_ReadReg(R5)  returns 0x20000014 (0000ms, 0629ms total)
TA5C0 003:079 JLINK_ReadReg(R6)  returns 0x00000000 (0000ms, 0629ms total)
TA5C0 003:079 JLINK_ReadReg(R7)  returns 0x00000000 (0000ms, 0629ms total)
TA5C0 003:079 JLINK_ReadReg(R8)  returns 0x00000000 (0000ms, 0629ms total)
TA5C0 003:079 JLINK_ReadReg(R9)  returns 0x20000160 (0000ms, 0629ms total)
TA5C0 003:079 JLINK_ReadReg(R10)  returns 0x08000724 (0000ms, 0629ms total)
TA5C0 003:079 JLINK_ReadReg(R11)  returns 0x00000000 (0000ms, 0629ms total)
TA5C0 003:079 JLINK_ReadReg(R12)  returns 0x20000054 (0000ms, 0629ms total)
TA5C0 003:079 JLINK_ReadReg(R13 (SP))  returns 0x20000670 (0000ms, 0629ms total)
TA5C0 003:079 JLINK_ReadReg(R14)  returns 0x0800019F (0000ms, 0629ms total)
TA5C0 003:079 JLINK_ReadReg(R15 (PC))  returns 0x080006FA (0000ms, 0629ms total)
TA5C0 003:079 JLINK_ReadReg(XPSR)  returns 0x21000000 (0000ms, 0629ms total)
TA5C0 003:079 JLINK_ReadReg(MSP)  returns 0x20000670 (0000ms, 0629ms total)
TA5C0 003:079 JLINK_ReadReg(PSP)  returns 0x20001000 (0000ms, 0629ms total)
TA5C0 003:079 JLINK_ReadReg(CFBP)  returns 0x00000000 (0000ms, 0629ms total)
TA3DC 003:080 JLINK_ReadMem (0x20000674, 0x0004 Bytes, ...) -- CPU_ReadMem(64 bytes @ 0x20000640) -- Updating C cache (64 bytes @ 0x20000640) -- Read from C cache (4 bytes @ 0x20000674) - Data: 9F 01 00 08  returns 0x00 (0000ms, 0629ms total)
TA3DC 003:080 JLINK_ReadMem (0x40010800, 0x000C Bytes, ...) -- CPU_ReadMem(12 bytes @ 0x40010800) - Data: 44 44 44 44 44 44 84 88 00 00 00 00  returns 0x00 (0000ms, 0629ms total)
TA3DC 003:080 JLINK_ReadMem (0x4001080C, 0x0004 Bytes, ...) -- CPU_ReadMem(4 bytes @ 0x4001080C) - Data: 00 A0 00 00  returns 0x00 (0000ms, 0629ms total)
TA3DC 003:080 JLINK_ReadMem (0x40010818, 0x0004 Bytes, ...) -- CPU_ReadMem(4 bytes @ 0x40010818) - Data: 00 00 00 00  returns 0x00 (0001ms, 0630ms total)
TA3DC 003:081 JLINK_ReadMem (0x40021000, 0x0024 Bytes, ...) -- CPU_ReadMem(36 bytes @ 0x40021000) - Data: 83 5C 03 03 0A 04 1D 00 00 00 00 00 00 00 00 00 ...  returns 0x00 (0000ms, 0630ms total)
TA3DC 003:081 JLINK_ReadMem (0x40021024, 0x0004 Bytes, ...) -- CPU_ReadMem(4 bytes @ 0x40021024) - Data: 00 00 00 1C  returns 0x00 (0000ms, 0630ms total)
TA3DC 003:091 JLINK_ReadMem (0x080006F6, 0x0002 Bytes, ...) -- Read from C cache (2 bytes @ 0x080006F6) - Data: FE E7  returns 0x00 (0000ms, 0630ms total)
TA3DC 003:091 JLINK_ReadMem (0x080006F8, 0x003C Bytes, ...) -- Read from C cache (60 bytes @ 0x080006F8) - Data: 10 B5 05 48 FF F7 FA FE AF 23 00 22 78 21 02 48 ...  returns 0x00 (0000ms, 0630ms total)
TA5C0 003:474 JLINK_Step() -- Read from C cache (2 bytes @ 0x080006FA) -- Read from C cache (4 bytes @ 0x08000710) -- Simulated  returns 0x00 (0000ms, 0630ms total)
TA5C0 003:474 JLINK_ReadReg(R15 (PC))  returns 0x080006FC (0000ms, 0630ms total)
TA5C0 003:474 JLINK_ReadReg(XPSR)  returns 0x21000000 (0000ms, 0630ms total)
TA5C0 003:474 JLINK_SetBPEx(Addr = 0x08000700, Type = 0xFFFFFFF2)  returns 0x00000002 (0000ms, 0630ms total)
TA5C0 003:474 JLINK_Go() -- CPU_ReadMem(4 bytes @ 0xE0001000) -- CPU_WriteMem(4 bytes @ 0xE0002008) -- CPU_WriteMem(4 bytes @ 0xE0001004) (0002ms, 0632ms total)
TA5C0 003:577 JLINK_IsHalted()  returns TRUE (0002ms, 0634ms total)
TA5C0 003:579 JLINK_Halt()  returns 0x00 (0000ms, 0632ms total)
TA5C0 003:579 JLINK_IsHalted()  returns TRUE (0000ms, 0632ms total)
TA5C0 003:579 JLINK_IsHalted()  returns TRUE (0000ms, 0632ms total)
TA5C0 003:579 JLINK_IsHalted()  returns TRUE (0000ms, 0632ms total)
TA5C0 003:579 JLINK_ReadReg(R15 (PC))  returns 0x08000700 (0000ms, 0632ms total)
TA5C0 003:579 JLINK_ReadReg(XPSR)  returns 0x61000000 (0000ms, 0632ms total)
TA5C0 003:579 JLINK_ClrBPEx(BPHandle = 0x00000002)  returns 0x00 (0000ms, 0632ms total)
TA5C0 003:579 JLINK_ReadMemU32(0xE000ED30, 0x0001 Items, ...) -- CPU_ReadMem(4 bytes @ 0xE000ED30) - Data: 02 00 00 00  returns 0x01 (0000ms, 0632ms total)
TA5C0 003:579 JLINK_ReadMemU32(0xE0001028, 0x0001 Items, ...) -- CPU_ReadMem(4 bytes @ 0xE0001028) - Data: 00 00 00 00  returns 0x01 (0000ms, 0632ms total)
TA5C0 003:579 JLINK_ReadMemU32(0xE0001038, 0x0001 Items, ...) -- CPU_ReadMem(4 bytes @ 0xE0001038) - Data: 00 02 00 00  returns 0x01 (0002ms, 0634ms total)
TA5C0 003:581 JLINK_ReadMemU32(0xE0001048, 0x0001 Items, ...) -- CPU_ReadMem(4 bytes @ 0xE0001048) - Data: 00 00 00 00  returns 0x01 (0000ms, 0634ms total)
TA5C0 003:581 JLINK_ReadMemU32(0xE0001058, 0x0001 Items, ...) -- CPU_ReadMem(4 bytes @ 0xE0001058) - Data: 00 00 00 00  returns 0x01 (0000ms, 0634ms total)
TA5C0 003:581 JLINK_ReadReg(R0)  returns 0x00000008 (0000ms, 0634ms total)
TA5C0 003:581 JLINK_ReadReg(R1)  returns 0x20000660 (0000ms, 0634ms total)
TA5C0 003:581 JLINK_ReadReg(R2)  returns 0x40011000 (0000ms, 0634ms total)
TA5C0 003:581 JLINK_ReadReg(R3)  returns 0x14031800 (0000ms, 0634ms total)
TA5C0 003:581 JLINK_ReadReg(R4)  returns 0x00000000 (0000ms, 0634ms total)
TA5C0 003:581 JLINK_ReadReg(R5)  returns 0x20000014 (0000ms, 0634ms total)
TA5C0 003:581 JLINK_ReadReg(R6)  returns 0x00000000 (0000ms, 0634ms total)
TA5C0 003:581 JLINK_ReadReg(R7)  returns 0x00000000 (0000ms, 0634ms total)
TA5C0 003:581 JLINK_ReadReg(R8)  returns 0x00000000 (0000ms, 0634ms total)
TA5C0 003:581 JLINK_ReadReg(R9)  returns 0x20000160 (0000ms, 0634ms total)
TA5C0 003:581 JLINK_ReadReg(R10)  returns 0x08000724 (0000ms, 0634ms total)
TA5C0 003:581 JLINK_ReadReg(R11)  returns 0x00000000 (0000ms, 0634ms total)
TA5C0 003:581 JLINK_ReadReg(R12)  returns 0x00001800 (0000ms, 0634ms total)
TA5C0 003:581 JLINK_ReadReg(R13 (SP))  returns 0x20000670 (0000ms, 0634ms total)
TA5C0 003:581 JLINK_ReadReg(R14)  returns 0x0800063B (0000ms, 0634ms total)
TA5C0 003:581 JLINK_ReadReg(R15 (PC))  returns 0x08000700 (0000ms, 0634ms total)
TA5C0 003:581 JLINK_ReadReg(XPSR)  returns 0x61000000 (0001ms, 0635ms total)
TA5C0 003:582 JLINK_ReadReg(MSP)  returns 0x20000670 (0000ms, 0635ms total)
TA5C0 003:582 JLINK_ReadReg(PSP)  returns 0x20001000 (0000ms, 0635ms total)
TA5C0 003:582 JLINK_ReadReg(CFBP)  returns 0x00000000 (0000ms, 0635ms total)
TA3DC 003:582 JLINK_ReadMem (0x20000674, 0x0004 Bytes, ...) -- CPU_ReadMem(64 bytes @ 0x20000640) -- Updating C cache (64 bytes @ 0x20000640) -- Read from C cache (4 bytes @ 0x20000674) - Data: 9F 01 00 08  returns 0x00 (0000ms, 0635ms total)
TA3DC 003:582 JLINK_ReadMem (0x40010800, 0x000C Bytes, ...) -- CPU_ReadMem(12 bytes @ 0x40010800) - Data: 44 44 44 44 44 44 84 88 00 00 00 00  returns 0x00 (0001ms, 0636ms total)
TA3DC 003:583 JLINK_ReadMem (0x4001080C, 0x0004 Bytes, ...) -- CPU_ReadMem(4 bytes @ 0x4001080C) - Data: 00 A0 00 00  returns 0x00 (0000ms, 0636ms total)
TA3DC 003:583 JLINK_ReadMem (0x40010818, 0x0004 Bytes, ...) -- CPU_ReadMem(4 bytes @ 0x40010818) - Data: 00 00 00 00  returns 0x00 (0000ms, 0636ms total)
TA3DC 003:584 JLINK_ReadMem (0x40021000, 0x0024 Bytes, ...) -- CPU_ReadMem(36 bytes @ 0x40021000) - Data: 83 5C 03 03 0A 04 1D 00 00 00 00 00 00 00 00 00 ...  returns 0x00 (0000ms, 0636ms total)
TA3DC 003:584 JLINK_ReadMem (0x40021024, 0x0004 Bytes, ...) -- CPU_ReadMem(4 bytes @ 0x40021024) - Data: 00 00 00 1C  returns 0x00 (0000ms, 0636ms total)
TA3DC 003:590 JLINK_ReadMem (0x080006FA, 0x0002 Bytes, ...) -- CPU_ReadMem(64 bytes @ 0x080006C0) -- Updating C cache (64 bytes @ 0x080006C0) -- Read from C cache (2 bytes @ 0x080006FA) - Data: 05 48  returns 0x00 (0001ms, 0637ms total)
TA3DC 003:591 JLINK_ReadMem (0x080006FC, 0x003C Bytes, ...) -- CPU_ReadMem(64 bytes @ 0x08000700) -- Updating C cache (64 bytes @ 0x08000700) -- Read from C cache (60 bytes @ 0x080006FC) - Data: FF F7 FA FE AF 23 00 22 78 21 02 48 FF F7 66 FE ...  returns 0x00 (0001ms, 0638ms total)
TA5C0 004:846 JLINK_Step() -- Read from C cache (2 bytes @ 0x08000700) -- CPU_ReadMem(4 bytes @ 0xE0001004) -- Simulated  returns 0x00 (0000ms, 0638ms total)
TA5C0 004:846 JLINK_ReadReg(R15 (PC))  returns 0x08000702 (0000ms, 0638ms total)
TA5C0 004:846 JLINK_ReadReg(XPSR)  returns 0x21000000 (0000ms, 0638ms total)
TA5C0 004:846 JLINK_Step() -- Read from C cache (2 bytes @ 0x08000702) -- Simulated  returns 0x00 (0000ms, 0638ms total)
TA5C0 004:846 JLINK_ReadReg(R15 (PC))  returns 0x08000704 (0000ms, 0638ms total)
TA5C0 004:846 JLINK_ReadReg(XPSR)  returns 0x61000000 (0000ms, 0638ms total)
TA5C0 004:846 JLINK_Step() -- Read from C cache (2 bytes @ 0x08000704) -- Simulated  returns 0x00 (0000ms, 0638ms total)
TA5C0 004:846 JLINK_ReadReg(R15 (PC))  returns 0x08000706 (0000ms, 0638ms total)
TA5C0 004:846 JLINK_ReadReg(XPSR)  returns 0x21000000 (0000ms, 0638ms total)
TA5C0 004:846 JLINK_Step() -- Read from C cache (2 bytes @ 0x08000706) -- Read from C cache (4 bytes @ 0x08000710) -- Simulated  returns 0x00 (0001ms, 0639ms total)
TA5C0 004:847 JLINK_ReadReg(R15 (PC))  returns 0x08000708 (0000ms, 0639ms total)
TA5C0 004:847 JLINK_ReadReg(XPSR)  returns 0x21000000 (0000ms, 0639ms total)
TA5C0 004:847 JLINK_Step() -- Read from C cache (2 bytes @ 0x08000708) -- Read from C cache (2 bytes @ 0x0800070A) -- Simulated  returns 0x00 (0000ms, 0639ms total)
TA5C0 004:847 JLINK_ReadReg(R15 (PC))  returns 0x080003D8 (0000ms, 0639ms total)
TA5C0 004:847 JLINK_ReadReg(XPSR)  returns 0x21000000 (0000ms, 0639ms total)
TA5C0 004:847 JLINK_ReadReg(R0)  returns 0x20000000 (0000ms, 0639ms total)
TA5C0 004:847 JLINK_ReadReg(R1)  returns 0x00000078 (0000ms, 0639ms total)
TA5C0 004:847 JLINK_ReadReg(R2)  returns 0x00000000 (0000ms, 0639ms total)
TA5C0 004:847 JLINK_ReadReg(R3)  returns 0x000000AF (0000ms, 0639ms total)
TA5C0 004:847 JLINK_ReadReg(R4)  returns 0x00000000 (0000ms, 0639ms total)
TA5C0 004:847 JLINK_ReadReg(R5)  returns 0x20000014 (0000ms, 0639ms total)
TA5C0 004:847 JLINK_ReadReg(R6)  returns 0x00000000 (0000ms, 0639ms total)
TA5C0 004:847 JLINK_ReadReg(R7)  returns 0x00000000 (0000ms, 0639ms total)
TA5C0 004:847 JLINK_ReadReg(R8)  returns 0x00000000 (0000ms, 0639ms total)
TA5C0 004:847 JLINK_ReadReg(R9)  returns 0x20000160 (0000ms, 0639ms total)
TA5C0 004:847 JLINK_ReadReg(R10)  returns 0x08000724 (0000ms, 0639ms total)
TA5C0 004:847 JLINK_ReadReg(R11)  returns 0x00000000 (0000ms, 0639ms total)
TA5C0 004:847 JLINK_ReadReg(R12)  returns 0x00001800 (0000ms, 0639ms total)
TA5C0 004:847 JLINK_ReadReg(R13 (SP))  returns 0x20000670 (0000ms, 0639ms total)
TA5C0 004:847 JLINK_ReadReg(R14)  returns 0x0800070D (0000ms, 0639ms total)
TA5C0 004:847 JLINK_ReadReg(R15 (PC))  returns 0x080003D8 (0000ms, 0639ms total)
TA5C0 004:847 JLINK_ReadReg(XPSR)  returns 0x21000000 (0000ms, 0639ms total)
TA5C0 004:847 JLINK_ReadReg(MSP)  returns 0x20000670 (0000ms, 0639ms total)
TA5C0 004:847 JLINK_ReadReg(PSP)  returns 0x20001000 (0000ms, 0639ms total)
TA5C0 004:847 JLINK_ReadReg(CFBP)  returns 0x00000000 (0000ms, 0639ms total)
TA3DC 004:848 JLINK_ReadMem (0x20000674, 0x0004 Bytes, ...) -- Read from C cache (4 bytes @ 0x20000674) - Data: 9F 01 00 08  returns 0x00 (0000ms, 0639ms total)
TA3DC 004:852 JLINK_ReadMem (0x40010800, 0x000C Bytes, ...) -- CPU_ReadMem(12 bytes @ 0x40010800) - Data: 44 44 44 44 44 44 84 88 00 00 00 00  returns 0x00 (0001ms, 0640ms total)
TA3DC 004:853 JLINK_ReadMem (0x4001080C, 0x0004 Bytes, ...) -- CPU_ReadMem(4 bytes @ 0x4001080C) - Data: 00 A0 00 00  returns 0x00 (0000ms, 0640ms total)
TA3DC 004:853 JLINK_ReadMem (0x40010818, 0x0004 Bytes, ...) -- CPU_ReadMem(4 bytes @ 0x40010818) - Data: 00 00 00 00  returns 0x00 (0000ms, 0640ms total)
TA3DC 004:853 JLINK_ReadMem (0x40021000, 0x0024 Bytes, ...) -- CPU_ReadMem(36 bytes @ 0x40021000) - Data: 83 5C 03 03 0A 04 1D 00 00 00 00 00 00 00 00 00 ...  returns 0x00 (0001ms, 0641ms total)
TA3DC 004:854 JLINK_ReadMem (0x40021024, 0x0004 Bytes, ...) -- CPU_ReadMem(4 bytes @ 0x40021024) - Data: 00 00 00 1C  returns 0x00 (0000ms, 0641ms total)
TA3DC 004:859 JLINK_ReadMem (0x080002D8, 0x003C Bytes, ...) -- CPU_ReadMem(128 bytes @ 0x080002C0) -- Updating C cache (128 bytes @ 0x080002C0) -- Read from C cache (60 bytes @ 0x080002D8) - Data: 91 F8 03 C0 BC F1 28 0F 06 D1 4F F0 01 0C 0C FA ...  returns 0x00 (0000ms, 0641ms total)
TA3DC 004:859 JLINK_ReadMem (0x08000314, 0x003C Bytes, ...) -- CPU_ReadMem(64 bytes @ 0x08000340) -- Updating C cache (64 bytes @ 0x08000340) -- Read from C cache (60 bytes @ 0x08000314) - Data: FF 0F 34 DD 54 68 00 20 2E E0 00 F1 08 0C 4F F0 ...  returns 0x00 (0001ms, 0642ms total)
TA3DC 004:860 JLINK_ReadMem (0x08000350, 0x003C Bytes, ...) -- CPU_ReadMem(64 bytes @ 0x08000380) -- Updating C cache (64 bytes @ 0x08000380) -- Read from C cache (60 bytes @ 0x08000350) - Data: 28 0F 05 D1 00 F1 08 0C 08 FA 0C F8 C2 F8 14 80 ...  returns 0x00 (0001ms, 0643ms total)
TA3DC 004:861 JLINK_ReadMem (0x0800038C, 0x003C Bytes, ...) -- CPU_ReadMem(64 bytes @ 0x080003C0) -- Updating C cache (64 bytes @ 0x080003C0) -- Read from C cache (60 bytes @ 0x0800038C) - Data: 0B 40 0B B1 01 20 00 E0 00 20 70 47 41 61 70 47 ...  returns 0x00 (0000ms, 0643ms total)
TA3DC 004:861 JLINK_ReadMem (0x080003C8, 0x0038 Bytes, ...) -- Read from C cache (56 bytes @ 0x080003C8) - Data: 00 61 02 48 FF F7 DB FF 10 BD 00 00 00 10 01 40 ...  returns 0x00 (0000ms, 0643ms total)
TA3DC 004:861 JLINK_ReadMem (0x08000400, 0x0004 Bytes, ...) -- CPU_ReadMem(64 bytes @ 0x08000400) -- Updating C cache (64 bytes @ 0x08000400) -- Read from C cache (4 bytes @ 0x08000400) - Data: 30 46 FF F7  returns 0x00 (0002ms, 0645ms total)
TA5C0 005:818 JLINK_Step() -- Read from C cache (2 bytes @ 0x080003D8) -- Read from C cache (2 bytes @ 0x080003DA) -- Not simulated -- CPU_WriteMem(4 bytes @ 0xE0002008) -- CPU_WriteMem(4 bytes @ 0xE0001004)  returns 0x00 (0004ms, 0649ms total)
TA5C0 005:822 JLINK_ReadReg(R15 (PC))  returns 0x080003DC (0000ms, 0649ms total)
TA5C0 005:822 JLINK_ReadReg(XPSR)  returns 0x21000000 (0000ms, 0649ms total)
TA5C0 005:822 JLINK_Step() -- CPU_ReadMem(64 bytes @ 0x080003C0) -- Updating C cache (64 bytes @ 0x080003C0) -- Read from C cache (2 bytes @ 0x080003DC) -- CPU_ReadMem(4 bytes @ 0xE0001004) -- Simulated  returns 0x00 (0001ms, 0650ms total)
TA5C0 005:823 JLINK_ReadReg(R15 (PC))  returns 0x080003DE (0000ms, 0650ms total)
TA5C0 005:823 JLINK_ReadReg(XPSR)  returns 0x21000000 (0000ms, 0650ms total)
TA5C0 005:823 JLINK_Step() -- Read from C cache (2 bytes @ 0x080003DE) -- Simulated  returns 0x00 (0000ms, 0650ms total)
TA5C0 005:823 JLINK_ReadReg(R15 (PC))  returns 0x080003E0 (0000ms, 0650ms total)
TA5C0 005:823 JLINK_ReadReg(XPSR)  returns 0x21000000 (0000ms, 0650ms total)
TA5C0 005:823 JLINK_Step() -- Read from C cache (2 bytes @ 0x080003E0) -- Simulated  returns 0x00 (0000ms, 0650ms total)
TA5C0 005:823 JLINK_ReadReg(R15 (PC))  returns 0x080003E2 (0000ms, 0650ms total)
TA5C0 005:823 JLINK_ReadReg(XPSR)  returns 0x21000000 (0000ms, 0650ms total)
TA5C0 005:823 JLINK_Step() -- Read from C cache (2 bytes @ 0x080003E2) -- Simulated  returns 0x00 (0000ms, 0650ms total)
TA5C0 005:823 JLINK_ReadReg(R15 (PC))  returns 0x080003E4 (0000ms, 0650ms total)
TA5C0 005:823 JLINK_ReadReg(XPSR)  returns 0x21000000 (0000ms, 0650ms total)
TA5C0 005:824 JLINK_ReadReg(R0)  returns 0x20000000 (0000ms, 0650ms total)
TA5C0 005:824 JLINK_ReadReg(R1)  returns 0x00000078 (0000ms, 0650ms total)
TA5C0 005:824 JLINK_ReadReg(R2)  returns 0x00000000 (0000ms, 0650ms total)
TA5C0 005:824 JLINK_ReadReg(R3)  returns 0x000000AF (0000ms, 0650ms total)
TA5C0 005:824 JLINK_ReadReg(R4)  returns 0x00000000 (0000ms, 0650ms total)
TA5C0 005:824 JLINK_ReadReg(R5)  returns 0x000000AF (0000ms, 0650ms total)
TA5C0 005:824 JLINK_ReadReg(R6)  returns 0x20000000 (0000ms, 0650ms total)
TA5C0 005:824 JLINK_ReadReg(R7)  returns 0x00000078 (0000ms, 0650ms total)
TA5C0 005:824 JLINK_ReadReg(R8)  returns 0x00000000 (0000ms, 0650ms total)
TA5C0 005:824 JLINK_ReadReg(R9)  returns 0x20000160 (0000ms, 0650ms total)
TA5C0 005:824 JLINK_ReadReg(R10)  returns 0x08000724 (0000ms, 0650ms total)
TA5C0 005:824 JLINK_ReadReg(R11)  returns 0x00000000 (0000ms, 0650ms total)
TA5C0 005:824 JLINK_ReadReg(R12)  returns 0x00001800 (0000ms, 0650ms total)
TA5C0 005:824 JLINK_ReadReg(R13 (SP))  returns 0x20000658 (0000ms, 0650ms total)
TA5C0 005:824 JLINK_ReadReg(R14)  returns 0x0800070D (0000ms, 0650ms total)
TA5C0 005:824 JLINK_ReadReg(R15 (PC))  returns 0x080003E4 (0000ms, 0650ms total)
TA5C0 005:824 JLINK_ReadReg(XPSR)  returns 0x21000000 (0000ms, 0650ms total)
TA5C0 005:824 JLINK_ReadReg(MSP)  returns 0x20000658 (0000ms, 0650ms total)
TA5C0 005:824 JLINK_ReadReg(PSP)  returns 0x20001000 (0000ms, 0650ms total)
TA5C0 005:824 JLINK_ReadReg(CFBP)  returns 0x00000000 (0000ms, 0650ms total)
TA3DC 005:824 JLINK_ReadMem (0x2000066C, 0x0004 Bytes, ...) -- CPU_ReadMem(64 bytes @ 0x20000640) -- Updating C cache (64 bytes @ 0x20000640) -- Read from C cache (4 bytes @ 0x2000066C) - Data: 0D 07 00 08  returns 0x00 (0000ms, 0650ms total)
TA3DC 005:824 JLINK_ReadMem (0x20000658, 0x0004 Bytes, ...) -- Read from C cache (4 bytes @ 0x20000658) - Data: 00 00 00 00  returns 0x00 (0000ms, 0650ms total)
TA3DC 005:824 JLINK_ReadMem (0x2000065C, 0x0004 Bytes, ...) -- Read from C cache (4 bytes @ 0x2000065C) - Data: 14 00 00 20  returns 0x00 (0000ms, 0650ms total)
TA3DC 005:824 JLINK_ReadMem (0x20000660, 0x0004 Bytes, ...) -- Read from C cache (4 bytes @ 0x20000660) - Data: 00 00 00 00  returns 0x00 (0000ms, 0650ms total)
TA3DC 005:824 JLINK_ReadMem (0x20000664, 0x0004 Bytes, ...) -- Read from C cache (4 bytes @ 0x20000664) - Data: 00 00 00 00  returns 0x00 (0000ms, 0650ms total)
TA3DC 005:824 JLINK_ReadMem (0x20000668, 0x0004 Bytes, ...) -- Read from C cache (4 bytes @ 0x20000668) - Data: 00 00 00 00  returns 0x00 (0000ms, 0650ms total)
TA3DC 005:824 JLINK_ReadMem (0x20000674, 0x0004 Bytes, ...) -- Read from C cache (4 bytes @ 0x20000674) - Data: 9F 01 00 08  returns 0x00 (0000ms, 0650ms total)
TA3DC 005:824 JLINK_ReadMem (0x40010800, 0x000C Bytes, ...) -- CPU_ReadMem(12 bytes @ 0x40010800) - Data: 44 44 44 44 44 44 84 88 00 00 00 00  returns 0x00 (0001ms, 0651ms total)
TA3DC 005:825 JLINK_ReadMem (0x4001080C, 0x0004 Bytes, ...) -- CPU_ReadMem(4 bytes @ 0x4001080C) - Data: 00 A0 00 00  returns 0x00 (0000ms, 0651ms total)
TA3DC 005:825 JLINK_ReadMem (0x40010818, 0x0004 Bytes, ...) -- CPU_ReadMem(4 bytes @ 0x40010818) - Data: 00 00 00 00  returns 0x00 (0001ms, 0652ms total)
TA3DC 005:826 JLINK_ReadMem (0x40021000, 0x0024 Bytes, ...) -- CPU_ReadMem(36 bytes @ 0x40021000) - Data: 83 5C 03 03 0A 04 1D 00 00 00 00 00 00 00 00 00 ...  returns 0x00 (0000ms, 0652ms total)
TA3DC 005:826 JLINK_ReadMem (0x40021024, 0x0004 Bytes, ...) -- CPU_ReadMem(4 bytes @ 0x40021024) - Data: 00 00 00 1C  returns 0x00 (0000ms, 0652ms total)
TA3DC 005:830 JLINK_ReadMem (0x080003D8, 0x0028 Bytes, ...) -- Read from C cache (40 bytes @ 0x080003D8) - Data: 2D E9 F0 41 06 46 0F 46 14 46 1D 46 30 46 00 F0 ...  returns 0x00 (0000ms, 0652ms total)
TA3DC 005:830 JLINK_ReadMem (0x08000400, 0x0014 Bytes, ...) -- CPU_ReadMem(64 bytes @ 0x08000400) -- Updating C cache (64 bytes @ 0x08000400) -- Read from C cache (20 bytes @ 0x08000400) - Data: 30 46 FF F7 CF FF 29 46 30 46 00 F0 26 F8 30 46 ...  returns 0x00 (0001ms, 0653ms total)
TA5C0 006:481 JLINK_Step() -- Read from C cache (2 bytes @ 0x080003E4) -- Simulated  returns 0x00 (0001ms, 0654ms total)
TA5C0 006:482 JLINK_ReadReg(R15 (PC))  returns 0x080003E6 (0000ms, 0654ms total)
TA5C0 006:482 JLINK_ReadReg(XPSR)  returns 0x21000000 (0000ms, 0654ms total)
TA5C0 006:482 JLINK_SetBPEx(Addr = 0x080003EA, Type = 0xFFFFFFF2)  returns 0x00000003 (0000ms, 0654ms total)
TA5C0 006:482 JLINK_Go() -- CPU_ReadMem(4 bytes @ 0xE0001000) -- CPU_WriteMem(4 bytes @ 0xE0002008) -- CPU_WriteMem(4 bytes @ 0xE0001004) (0002ms, 0656ms total)
TA5C0 006:584 JLINK_IsHalted()  returns TRUE (0002ms, 0658ms total)
TA5C0 006:586 JLINK_Halt()  returns 0x00 (0000ms, 0656ms total)
TA5C0 006:586 JLINK_IsHalted()  returns TRUE (0000ms, 0656ms total)
TA5C0 006:586 JLINK_IsHalted()  returns TRUE (0000ms, 0656ms total)
TA5C0 006:586 JLINK_IsHalted()  returns TRUE (0000ms, 0656ms total)
TA5C0 006:586 JLINK_ReadReg(R15 (PC))  returns 0x080003EA (0000ms, 0656ms total)
TA5C0 006:586 JLINK_ReadReg(XPSR)  returns 0x61000000 (0000ms, 0656ms total)
TA5C0 006:586 JLINK_ClrBPEx(BPHandle = 0x00000003)  returns 0x00 (0000ms, 0656ms total)
TA5C0 006:586 JLINK_ReadMemU32(0xE000ED30, 0x0001 Items, ...) -- CPU_ReadMem(4 bytes @ 0xE000ED30) - Data: 02 00 00 00  returns 0x01 (0001ms, 0657ms total)
TA5C0 006:587 JLINK_ReadMemU32(0xE0001028, 0x0001 Items, ...) -- CPU_ReadMem(4 bytes @ 0xE0001028) - Data: 00 00 00 00  returns 0x01 (0000ms, 0657ms total)
TA5C0 006:587 JLINK_ReadMemU32(0xE0001038, 0x0001 Items, ...) -- CPU_ReadMem(4 bytes @ 0xE0001038) - Data: 00 02 00 00  returns 0x01 (0000ms, 0657ms total)
TA5C0 006:587 JLINK_ReadMemU32(0xE0001048, 0x0001 Items, ...) -- CPU_ReadMem(4 bytes @ 0xE0001048) - Data: 00 00 00 00  returns 0x01 (0000ms, 0657ms total)
TA5C0 006:587 JLINK_ReadMemU32(0xE0001058, 0x0001 Items, ...) -- CPU_ReadMem(4 bytes @ 0xE0001058) - Data: 00 00 00 00  returns 0x01 (0001ms, 0658ms total)
TA5C0 006:588 JLINK_ReadReg(R0)  returns 0x40011000 (0000ms, 0658ms total)
TA5C0 006:588 JLINK_ReadReg(R1)  returns 0x00001000 (0000ms, 0658ms total)
TA5C0 006:588 JLINK_ReadReg(R2)  returns 0x00000000 (0000ms, 0658ms total)
TA5C0 006:588 JLINK_ReadReg(R3)  returns 0x000000AF (0000ms, 0658ms total)
TA5C0 006:588 JLINK_ReadReg(R4)  returns 0x00000000 (0000ms, 0658ms total)
TA5C0 006:588 JLINK_ReadReg(R5)  returns 0x000000AF (0000ms, 0658ms total)
TA5C0 006:588 JLINK_ReadReg(R6)  returns 0x20000000 (0000ms, 0658ms total)
TA5C0 006:588 JLINK_ReadReg(R7)  returns 0x00000078 (0000ms, 0658ms total)
TA5C0 006:588 JLINK_ReadReg(R8)  returns 0x00000000 (0000ms, 0658ms total)
TA5C0 006:588 JLINK_ReadReg(R9)  returns 0x20000160 (0000ms, 0658ms total)
TA5C0 006:588 JLINK_ReadReg(R10)  returns 0x08000724 (0000ms, 0658ms total)
TA5C0 006:588 JLINK_ReadReg(R11)  returns 0x00000000 (0000ms, 0658ms total)
TA5C0 006:588 JLINK_ReadReg(R12)  returns 0x00001800 (0000ms, 0658ms total)
TA5C0 006:588 JLINK_ReadReg(R13 (SP))  returns 0x20000658 (0000ms, 0658ms total)
TA5C0 006:588 JLINK_ReadReg(R14)  returns 0x080004A3 (0000ms, 0658ms total)
TA5C0 006:588 JLINK_ReadReg(R15 (PC))  returns 0x080003EA (0000ms, 0658ms total)
TA5C0 006:588 JLINK_ReadReg(XPSR)  returns 0x61000000 (0000ms, 0658ms total)
TA5C0 006:588 JLINK_ReadReg(MSP)  returns 0x20000658 (0000ms, 0658ms total)
TA5C0 006:588 JLINK_ReadReg(PSP)  returns 0x20001000 (0000ms, 0658ms total)
TA5C0 006:588 JLINK_ReadReg(CFBP)  returns 0x00000000 (0000ms, 0658ms total)
TA3DC 006:588 JLINK_ReadMem (0x2000066C, 0x0004 Bytes, ...) -- CPU_ReadMem(64 bytes @ 0x20000640) -- Updating C cache (64 bytes @ 0x20000640) -- Read from C cache (4 bytes @ 0x2000066C) - Data: 0D 07 00 08  returns 0x00 (0001ms, 0659ms total)
TA3DC 006:589 JLINK_ReadMem (0x20000658, 0x0004 Bytes, ...) -- Read from C cache (4 bytes @ 0x20000658) - Data: 00 00 00 00  returns 0x00 (0000ms, 0659ms total)
TA3DC 006:589 JLINK_ReadMem (0x2000065C, 0x0004 Bytes, ...) -- Read from C cache (4 bytes @ 0x2000065C) - Data: 14 00 00 20  returns 0x00 (0000ms, 0659ms total)
TA3DC 006:589 JLINK_ReadMem (0x20000660, 0x0004 Bytes, ...) -- Read from C cache (4 bytes @ 0x20000660) - Data: 00 00 00 00  returns 0x00 (0000ms, 0659ms total)
TA3DC 006:589 JLINK_ReadMem (0x20000664, 0x0004 Bytes, ...) -- Read from C cache (4 bytes @ 0x20000664) - Data: 00 00 00 00  returns 0x00 (0000ms, 0659ms total)
TA3DC 006:589 JLINK_ReadMem (0x20000668, 0x0004 Bytes, ...) -- Read from C cache (4 bytes @ 0x20000668) - Data: 00 00 00 00  returns 0x00 (0000ms, 0659ms total)
TA3DC 006:589 JLINK_ReadMem (0x20000674, 0x0004 Bytes, ...) -- Read from C cache (4 bytes @ 0x20000674) - Data: 9F 01 00 08  returns 0x00 (0000ms, 0659ms total)
TA3DC 006:589 JLINK_ReadMem (0x40010800, 0x000C Bytes, ...) -- CPU_ReadMem(12 bytes @ 0x40010800) - Data: 44 44 44 44 44 44 84 88 00 00 00 00  returns 0x00 (0000ms, 0659ms total)
TA3DC 006:589 JLINK_ReadMem (0x4001080C, 0x0004 Bytes, ...) -- CPU_ReadMem(4 bytes @ 0x4001080C) - Data: 00 A0 00 00  returns 0x00 (0001ms, 0660ms total)
TA3DC 006:590 JLINK_ReadMem (0x40010818, 0x0004 Bytes, ...) -- CPU_ReadMem(4 bytes @ 0x40010818) - Data: 00 00 00 00  returns 0x00 (0000ms, 0660ms total)
TA3DC 006:590 JLINK_ReadMem (0x40021000, 0x0024 Bytes, ...) -- CPU_ReadMem(36 bytes @ 0x40021000) - Data: 83 5C 03 03 0A 04 1D 00 00 00 00 00 00 00 00 00 ...  returns 0x00 (0001ms, 0661ms total)
TA3DC 006:591 JLINK_ReadMem (0x40021024, 0x0004 Bytes, ...) -- CPU_ReadMem(4 bytes @ 0x40021024) - Data: 00 00 00 1C  returns 0x00 (0000ms, 0661ms total)
TA3DC 006:601 JLINK_ReadMem (0x080003EA, 0x0002 Bytes, ...) -- CPU_ReadMem(64 bytes @ 0x080003C0) -- Updating C cache (64 bytes @ 0x080003C0) -- Read from C cache (2 bytes @ 0x080003EA) - Data: 39 46  returns 0x00 (0000ms, 0661ms total)
TA3DC 006:601 JLINK_ReadMem (0x080003EC, 0x0014 Bytes, ...) -- Read from C cache (20 bytes @ 0x080003EC) - Data: 30 46 00 F0 34 F8 30 46 FF F7 D6 FF 21 46 30 46 ...  returns 0x00 (0000ms, 0661ms total)
TA3DC 006:601 JLINK_ReadMem (0x08000400, 0x0028 Bytes, ...) -- CPU_ReadMem(64 bytes @ 0x08000400) -- Updating C cache (64 bytes @ 0x08000400) -- Read from C cache (40 bytes @ 0x08000400) - Data: 30 46 FF F7 CF FF 29 46 30 46 00 F0 26 F8 30 46 ...  returns 0x00 (0000ms, 0661ms total)
TA3DC 013:146 JLINK_ReadMem (0x40011000, 0x000C Bytes, ...) -- CPU_ReadMem(12 bytes @ 0x40011000) - Data: 44 44 44 44 44 74 47 44 FF F7 00 00  returns 0x00 (0001ms, 0662ms total)
TA3DC 013:147 JLINK_ReadMem (0x4001100C, 0x0004 Bytes, ...) -- CPU_ReadMem(4 bytes @ 0x4001100C) - Data: 00 10 00 00  returns 0x00 (0000ms, 0662ms total)
TA3DC 013:147 JLINK_ReadMem (0x40011018, 0x0004 Bytes, ...) -- CPU_ReadMem(4 bytes @ 0x40011018) - Data: 00 00 00 00  returns 0x00 (0000ms, 0662ms total)
TA5C0 020:575 JLINK_Step() -- Read from C cache (2 bytes @ 0x080003EA) -- CPU_ReadMem(4 bytes @ 0xE0001004) -- Simulated  returns 0x00 (0001ms, 0663ms total)
TA5C0 020:576 JLINK_ReadReg(R15 (PC))  returns 0x080003EC (0000ms, 0663ms total)
TA5C0 020:576 JLINK_ReadReg(XPSR)  returns 0x61000000 (0000ms, 0663ms total)
TA5C0 020:576 JLINK_Step() -- Read from C cache (2 bytes @ 0x080003EC) -- Simulated  returns 0x00 (0000ms, 0663ms total)
TA5C0 020:576 JLINK_ReadReg(R15 (PC))  returns 0x080003EE (0000ms, 0663ms total)
TA5C0 020:576 JLINK_ReadReg(XPSR)  returns 0x61000000 (0000ms, 0663ms total)
TA5C0 020:576 JLINK_Step() -- Read from C cache (2 bytes @ 0x080003EE) -- Read from C cache (2 bytes @ 0x080003F0) -- Simulated  returns 0x00 (0000ms, 0663ms total)
TA5C0 020:576 JLINK_ReadReg(R15 (PC))  returns 0x0800045A (0000ms, 0663ms total)
TA5C0 020:576 JLINK_ReadReg(XPSR)  returns 0x61000000 (0000ms, 0663ms total)
TA5C0 020:576 JLINK_ReadReg(R0)  returns 0x20000000 (0000ms, 0663ms total)
TA5C0 020:576 JLINK_ReadReg(R1)  returns 0x00000078 (0000ms, 0663ms total)
TA5C0 020:576 JLINK_ReadReg(R2)  returns 0x00000000 (0000ms, 0663ms total)
TA5C0 020:576 JLINK_ReadReg(R3)  returns 0x000000AF (0000ms, 0663ms total)
TA5C0 020:576 JLINK_ReadReg(R4)  returns 0x00000000 (0000ms, 0663ms total)
TA5C0 020:576 JLINK_ReadReg(R5)  returns 0x000000AF (0000ms, 0663ms total)
TA5C0 020:576 JLINK_ReadReg(R6)  returns 0x20000000 (0000ms, 0663ms total)
TA5C0 020:576 JLINK_ReadReg(R7)  returns 0x00000078 (0000ms, 0663ms total)
TA5C0 020:577 JLINK_ReadReg(R8)  returns 0x00000000 (0000ms, 0664ms total)
TA5C0 020:577 JLINK_ReadReg(R9)  returns 0x20000160 (0000ms, 0664ms total)
TA5C0 020:577 JLINK_ReadReg(R10)  returns 0x08000724 (0000ms, 0664ms total)
TA5C0 020:577 JLINK_ReadReg(R11)  returns 0x00000000 (0000ms, 0664ms total)
TA5C0 020:577 JLINK_ReadReg(R12)  returns 0x00001800 (0000ms, 0664ms total)
TA5C0 020:577 JLINK_ReadReg(R13 (SP))  returns 0x20000658 (0000ms, 0664ms total)
TA5C0 020:577 JLINK_ReadReg(R14)  returns 0x080003F3 (0000ms, 0664ms total)
TA5C0 020:577 JLINK_ReadReg(R15 (PC))  returns 0x0800045A (0000ms, 0664ms total)
TA5C0 020:577 JLINK_ReadReg(XPSR)  returns 0x61000000 (0000ms, 0664ms total)
TA5C0 020:577 JLINK_ReadReg(MSP)  returns 0x20000658 (0000ms, 0664ms total)
TA5C0 020:577 JLINK_ReadReg(PSP)  returns 0x20001000 (0000ms, 0664ms total)
TA5C0 020:577 JLINK_ReadReg(CFBP)  returns 0x00000000 (0000ms, 0664ms total)
TA3DC 020:577 JLINK_ReadMem (0x2000066C, 0x0004 Bytes, ...) -- Read from C cache (4 bytes @ 0x2000066C) - Data: 0D 07 00 08  returns 0x00 (0000ms, 0664ms total)
TA3DC 020:577 JLINK_ReadMem (0x20000658, 0x0004 Bytes, ...) -- Read from C cache (4 bytes @ 0x20000658) - Data: 00 00 00 00  returns 0x00 (0000ms, 0664ms total)
TA3DC 020:577 JLINK_ReadMem (0x2000065C, 0x0004 Bytes, ...) -- Read from C cache (4 bytes @ 0x2000065C) - Data: 14 00 00 20  returns 0x00 (0000ms, 0664ms total)
TA3DC 020:577 JLINK_ReadMem (0x20000660, 0x0004 Bytes, ...) -- Read from C cache (4 bytes @ 0x20000660) - Data: 00 00 00 00  returns 0x00 (0000ms, 0664ms total)
TA3DC 020:577 JLINK_ReadMem (0x20000664, 0x0004 Bytes, ...) -- Read from C cache (4 bytes @ 0x20000664) - Data: 00 00 00 00  returns 0x00 (0000ms, 0664ms total)
TA3DC 020:577 JLINK_ReadMem (0x20000668, 0x0004 Bytes, ...) -- Read from C cache (4 bytes @ 0x20000668) - Data: 00 00 00 00  returns 0x00 (0000ms, 0664ms total)
TA3DC 020:577 JLINK_ReadMem (0x20000674, 0x0004 Bytes, ...) -- Read from C cache (4 bytes @ 0x20000674) - Data: 9F 01 00 08  returns 0x00 (0000ms, 0664ms total)
TA3DC 020:581 JLINK_ReadMem (0x40011000, 0x000C Bytes, ...) -- CPU_ReadMem(12 bytes @ 0x40011000) - Data: 44 44 44 44 44 74 47 44 FF F7 00 00  returns 0x00 (0001ms, 0665ms total)
TA3DC 020:582 JLINK_ReadMem (0x4001100C, 0x0004 Bytes, ...) -- CPU_ReadMem(4 bytes @ 0x4001100C) - Data: 00 10 00 00  returns 0x00 (0000ms, 0665ms total)
TA3DC 020:582 JLINK_ReadMem (0x40011018, 0x0004 Bytes, ...) -- CPU_ReadMem(4 bytes @ 0x40011018) - Data: 00 00 00 00  returns 0x00 (0001ms, 0666ms total)
TA3DC 020:583 JLINK_ReadMem (0x40010800, 0x000C Bytes, ...) -- CPU_ReadMem(12 bytes @ 0x40010800) - Data: 44 44 44 44 44 44 84 88 00 00 00 00  returns 0x00 (0000ms, 0666ms total)
TA3DC 020:583 JLINK_ReadMem (0x4001080C, 0x0004 Bytes, ...) -- CPU_ReadMem(4 bytes @ 0x4001080C) - Data: 00 A0 00 00  returns 0x00 (0000ms, 0666ms total)
TA3DC 020:583 JLINK_ReadMem (0x40010818, 0x0004 Bytes, ...) -- CPU_ReadMem(4 bytes @ 0x40010818) - Data: 00 00 00 00  returns 0x00 (0001ms, 0667ms total)
TA3DC 020:584 JLINK_ReadMem (0x40021000, 0x0024 Bytes, ...) -- CPU_ReadMem(36 bytes @ 0x40021000) - Data: 83 5C 03 03 0A 04 1D 00 00 00 00 00 00 00 00 00 ...  returns 0x00 (0000ms, 0667ms total)
TA3DC 020:584 JLINK_ReadMem (0x40021024, 0x0004 Bytes, ...) -- CPU_ReadMem(4 bytes @ 0x40021024) - Data: 00 00 00 1C  returns 0x00 (0000ms, 0667ms total)
TA3DC 020:589 JLINK_ReadMem (0x08000458, 0x003C Bytes, ...) -- CPU_ReadMem(128 bytes @ 0x08000440) -- Updating C cache (128 bytes @ 0x08000440) -- Read from C cache (60 bytes @ 0x08000458) - Data: 10 BD 70 B5 04 46 0D 46 00 26 13 E0 00 20 E1 68 ...  returns 0x00 (0001ms, 0668ms total)
TA5C0 022:130 JLINK_Step() -- Read from C cache (2 bytes @ 0x0800045A) -- CPU_WriteMem(16 bytes @ 0x20000648) -- Simulated  returns 0x00 (0001ms, 0669ms total)
TA5C0 022:131 JLINK_ReadReg(R15 (PC))  returns 0x0800045C (0000ms, 0669ms total)
TA5C0 022:131 JLINK_ReadReg(XPSR)  returns 0x61000000 (0000ms, 0669ms total)
TA5C0 022:131 JLINK_Step() -- Read from C cache (2 bytes @ 0x0800045C) -- Simulated  returns 0x00 (0000ms, 0669ms total)
TA5C0 022:131 JLINK_ReadReg(R15 (PC))  returns 0x0800045E (0000ms, 0669ms total)
TA5C0 022:131 JLINK_ReadReg(XPSR)  returns 0x61000000 (0000ms, 0669ms total)
TA5C0 022:131 JLINK_Step() -- Read from C cache (2 bytes @ 0x0800045E) -- Simulated  returns 0x00 (0000ms, 0669ms total)
TA5C0 022:131 JLINK_ReadReg(R15 (PC))  returns 0x08000460 (0000ms, 0669ms total)
TA5C0 022:131 JLINK_ReadReg(XPSR)  returns 0x61000000 (0000ms, 0669ms total)
TA5C0 022:131 JLINK_ReadReg(R0)  returns 0x20000000 (0000ms, 0669ms total)
TA5C0 022:131 JLINK_ReadReg(R1)  returns 0x00000078 (0000ms, 0669ms total)
TA5C0 022:131 JLINK_ReadReg(R2)  returns 0x00000000 (0000ms, 0669ms total)
TA5C0 022:131 JLINK_ReadReg(R3)  returns 0x000000AF (0000ms, 0669ms total)
TA5C0 022:131 JLINK_ReadReg(R4)  returns 0x20000000 (0000ms, 0669ms total)
TA5C0 022:131 JLINK_ReadReg(R5)  returns 0x00000078 (0000ms, 0669ms total)
TA5C0 022:131 JLINK_ReadReg(R6)  returns 0x20000000 (0000ms, 0669ms total)
TA5C0 022:131 JLINK_ReadReg(R7)  returns 0x00000078 (0000ms, 0669ms total)
TA5C0 022:131 JLINK_ReadReg(R8)  returns 0x00000000 (0000ms, 0669ms total)
TA5C0 022:131 JLINK_ReadReg(R9)  returns 0x20000160 (0000ms, 0669ms total)
TA5C0 022:131 JLINK_ReadReg(R10)  returns 0x08000724 (0000ms, 0669ms total)
TA5C0 022:131 JLINK_ReadReg(R11)  returns 0x00000000 (0000ms, 0669ms total)
TA5C0 022:131 JLINK_ReadReg(R12)  returns 0x00001800 (0000ms, 0669ms total)
TA5C0 022:131 JLINK_ReadReg(R13 (SP))  returns 0x20000648 (0000ms, 0669ms total)
TA5C0 022:131 JLINK_ReadReg(R14)  returns 0x080003F3 (0000ms, 0669ms total)
TA5C0 022:131 JLINK_ReadReg(R15 (PC))  returns 0x08000460 (0000ms, 0669ms total)
TA5C0 022:131 JLINK_ReadReg(XPSR)  returns 0x61000000 (0000ms, 0669ms total)
TA5C0 022:131 JLINK_ReadReg(MSP)  returns 0x20000648 (0000ms, 0669ms total)
TA5C0 022:131 JLINK_ReadReg(PSP)  returns 0x20001000 (0000ms, 0669ms total)
TA5C0 022:131 JLINK_ReadReg(CFBP)  returns 0x00000000 (0000ms, 0669ms total)
