;删除本文件可以恢复默认值。
;这是SSCOM的设置保存文件,您在程序中设置好的串口参数和字符串数据都会自动保存,请最好不要用外部编辑器改动本文件!
;如果文件被修改后程序不能打开,请删除本文件,程序将会自动生成一个新的ini文件.
;靠行首的半角分号是注释符号
;每行都以回车结束

;"="后面的H表示这是个HEX数据串
;"="后面的A表示这是个ASC字符串
;Nx表示第几条定义的字符串(1<x<=N)
N101=0,查询dio,1000
N1=H,A0 00 00 02 04 01 FF 00 00 58

N102=0,吸合,1000
N2=H,A0 00 00 02 07 01 09 00 00 0A 00 00 A7

N103=0,断开,1000
N3=H,A0 00 00 02 07 01 09 00 01 0A 00 01 A7

N104=0,开,1000
N4=H,A0 00 00 0A 06 09 01 01 00 00 00 A5

N105=0,关,1000
N5=H,A0 00 00 0A 06 09 01 00 00 00 00 A4

N106=0,灯1开,1000
N6=H,A0 E9 00 0A 06 06 01 01 00 00 00 43

N107=0,灯1关,1000
N7=H,A0 E7 00 0A 06 06 01 00 00 00 00 4C

N108=0,灯2开,1000
N8=H,A0 00 00 0A 06 07 01 01 00 00 00 AB

N109=0,灯2关,1000
N9=H,A0 00 00 0A 06 07 01 00 00 00 00 AA

N110=3,风机开,100
N10=H,A0 E4 00 05 06 08 01 01 00 00 00 4F

N111=5,风机关,100
N11=H,A0 E5 00 05 06 08 01 00 00 00 00 4F

N112=0,第一帧,100
N12=H,A0 00 FF FF 02 FF FF A2

N113=0,2关,1000
N13=H,A0 00 00 64 07 03 0D 00 01 0E 00 01 C3

N114=0,2开,1000
N14=H,A0 00 00 64 07 03 0D 00 00 0E 00 00 C3

N115=0,3开,1000
N15=H,A0 00 00 64 0A 03 0D 00 01 0E 00 01 0F 00 01 C0

N116=0,3关,1000
N16=H,A0 00 00 64 0A 03 0D 00 00 0E 00 00 0F 00 00 C1

N117=0,4开,1000
N17=H,A0 00 00 64 0D 03 0D 00 01 0E 00 01 0F 00 01 10 00 01 D6

N118=0,4关,1000
N18=H,A0 00 00 64 0D 03 0D 00 00 0E 00 00 0F 00 00 10 00 00 D6

N119=0,开灯,3001
N19=H,A0 00 00 03 07 03 09 00 01 0A 00 01 A4

N120=0,关灯,3002
N20=H,A0 00 00 03 07 03 09 00 00 0A 00 00 A4

N121=1,21无注释,1000
N21=H,A0 00 00 00 02 FF FF A2

N122=0,噪声,1000
N22=H,01 03 00 00 00 01 84 0A

N123=2,00,1000
N23=H,E0 00 00 00 02 FF 40 5D

N124=4,01,1000
N24=H,E0 00 00 00 02 FF 40 5D

N125=6,09,1000
N25=H,E0 00 00 00 02 FF 40 5D

N126=0,0F,1000
N26=H,97 51 46 1F 04 04 B3 3B

N127=0,15,1000
N27=H,97 51 46 1F 02 02 82 DD

N128=0,X 220,1000
N28=H,97 51 46 1F 01 01 9A 2E

N129=0,29无注释,1000
N29=H,97 51 46 2F 04 04 35 95

N130=0,30无注释,1000
N30=H,97 51 46 2F 02 02 04 73

N131=0,Y 220,1000
N31=H,97 51 46 2F 01 01 1C 80

N132=0,32无注释,1000
N32=H,97 51 46 3F 04 04 B0 00 

N133=0,33无注释,1000
N33=H,97 51 46 3F 02 02 81 E6

N134=0,Z 220,1000
N34=H,97 51 46 3F 01 01 99 15

N135=0,35无注释,1000
N35=H,97 51 46 5F 04 04 B5 4D

N136=0,50关,1000
N36=H,A0 00 00 32 07 03 09 00 00 0A 00 00 95

N137=0,50开,1000
N37=H,A0 00 00 32 07 03 09 00 01 0A 00 01 95

N138=0,51关,1000
N38=H,A0 00 00 33 07 03 09 00 00 0A 00 00 94

N139=0,51开,1000
N39=H,A0 00 00 33 07 03 09 00 01 0A 00 01 94

N140=0,52关,1000
N40=H,A0 00 00 34 07 03 09 00 00 0A 00 00 93

N141=0,52开,1000
N41=H,A0 00 00 34 07 03 09 00 01 0A 00 01 93

N142=0,42无注释,1000
N42=A,

N143=0,43无注释,1000
N43=A,

N144=0,44无注释,3001
N44=H,A0 00 00 33 04 03 09 00 01 9C

N145=0,45无注释,3000
N45=H,A0 00 00 33 04 03 09 00 00 9D

N146=0,46无注释,3001
N46=H,A0 00 00 33 04 03 0A 00 01 9F

N147=0,47无注释,3000
N47=H,A0 00 00 33 04 03 0A 00 00 9E

N148=0,48无注释,1000
N48=A,

N149=0,关,1000
N49=H,01 10 00 20 00 04 08 00 00 00 00 00 00 00 00

N150=0,开,1000
N50=H,01 10 00 20 00 04 08 00 01 00 01 00 01 00 01

N151=0,51无注释,1000
N51=A,

N152=0,52无注释,1000
N52=A,

N153=0,53无注释,1000
N53=A,

N154=0,54无注释,1000
N54=A,

N155=0,振动,1000
N55=H,01 03 00 01 00 08 15 CC

N156=0,56无注释,1000
N56=H,02 03 00 01 00 08 15 FF

N157=0,改为地址02,1000
N57=H,01 10 00 0b 00 01 02 00 02 26 EA

N158=0,改为01,1000
N58=H,02 10 00 0b 00 01 02 00 01 72 1B

N159=0,改为256,1000
N59=H,01 10 00 0b 00 01 02 01 00 A6 BB

N160=0,60无注释,1000
N60=A,

N161=0,61无注释,1000
N61=A,

N162=0,输入原值,1000
N62=A,01 03 06 00 01 02 58 00 32 1D 0B 

N163=0,修改输入1,1000
N63=H,01 10 01 2d 00 02 04 00 01 00 01 AD BE

N164=0,修改输入2,1000
N64=H,01 10 01 30 00 01 02 00 01 72 A0

N165=0,修改输入2原值,1000
N65=H,01 10 01 30 00 02 04 02 58 00 32 FC 95

N166=0,66无注释,1000
N66=H,01 10 01 30 00 02 04 02 58 00 32 FC 95

N167=0,改2波特率56700,1000
N67=H,02 10 00 1c 00 01 02 e1 00 F8 AC

N168=0,改2波特率9600,1000
N68=H,02 10 00 1c 00 01 02 25 80 AB CC

N169=0,69无注释,1000
N69=A,

N170=0,70无注释,1000
N70=A,

N171=0,71无注释,1000
N71=H,01 03 00 08 00 02 45 C9

N172=0,72无注释,1000
N72=H,42 4D 00 08 11 22 33 44 55 66 38 E7

N173=0,73无注释,1000
N73=A,

N174=0,74无注释,1000
N74=A,

N175=0,温湿度光照01,1000
N75=H,01 03 00 01 00 04 15 C9

N176=0,76无注释,1000
N76=H,

N177=0,1改2,1000
N77=H,01 10 00 1b 00 01 02 00 02 24 7A

N178=0,2改1,1000
N78=H,02 10 00 1b 00 01 02 00 01 70 8B

N179=0,读CH1,1000
N79=H,01 03 00 65 00 02 D4 14

N180=0,读CH2,1000
N80=H,01 03 00 67 00 02 75 d4

N181=0,81无注释,1000
N81=H,01 03 00 66 00 02 24 14

N182=0,查询100 3个字,1000
N82=H,01 03 00 64 00 03 44 14

N183=0,83无注释,1000
N83=A,

N184=0,84无注释,1000
N84=A,

N185=0,85无注释,1000
N85=H,01 03 00 67 00 02 75 D4

N186=0,查询输入2,1000
N86=H,01 03 01 2f 00 03 35 FE

N187=0,本地指令,1000
N87=H,80 00 00 02 01 A1 22

N188=0,88无注释,1000
N88=A,

N189=0,查询输入1,1000
N89=H,01 03 01 2c 00 03 C5 FE

N190=0,90无注释,1000
N90=H,01 03 00 71 00 03 55 D0

N191=0,查询输入5,1000
N91=H,01 03 00 6d 00 02 55 D6

N192=0,改1,1000
N92=H,A0 00 00 0b 07 09 01 01 00 00 00 00 A5

N193=0,改0,1000
N93=H,A0 00 00 0b 07 09 01 00 00 00 00 00 A4

N194=0,广播,1000
N94=H,A0 00 ff ff 02 ff ff A2

N195=0,5.5,1000
N95=H,

N196=0,改5.2,1000
N96=H,A0 00 00 05 07 05 02 66 66 a6 40 00 43

N197=0,改2.4,1000
N97=H,A0 00 00 05 07 05 02 9a 99 19 40 00 FF

N198=0,改1,1000
N98=H,A0 00 00 05 07 0b 01 01 00 00 00 00 A9

N199=0,改0,1000
N99=H,A0 00 00 05 07 0b 01 00 00 00 00 00 A8

;发送文件时每256字节延时时间ms
N1051=,1
;打开文件地址和名称
N1052=,
;主面板ASC字符串
N1053=,23.23
;主面板HEX数据串
N1054=,A0 00 FF FF 02 FF FF A2
;主面板发送方式(ASC or HEX)
N1055=,H
;主面板字符串发送间隔时间ms
N1056=,1000
;主面板字符串发送新行
N1057=,N
;多条字符串发送间隔时间ms
N1058=,1000
;接收窗口是否HEX显示方式
N1059=,Y
;校验方式,0=None，1=modbusCRC16，2=ADD，3=XOR
N1060=,0
;保存DTR:
N1061=,Y
;保存RTS:
N1062=,Y
;程序启动时是否打开串口
N1063=,N
;是否分包显示
N1064=,Y
;分包超时时间ms
N1065=,20
;接收窗背景颜色
N1066=,16777215
;显示缓冲上限,200K,500K,1M,2M,5M,10M,20M
N1067=,1000000
;远程IP地址
N1068=,120.76.28.211
;远程端口
N1069=,80
;本地端口
N1070=,777
;选择回车后发送行(带回显)
N1071=,N
;选择按键立即发送键值
N1072=,Y
;选择回显
N1073=,N
;第几字节至末尾加校验
N1074=,1
;至末尾倒数第几字节加校验,存第几个项目
N1075=,0
;终端仿真输入回车后是否自动加换行
N1076=,N
;当前串口号Port=COMX,网络模式):1=TCPCLIENT,2=TCPSERVER,3=UDP
N1080=,COM3
;波特率Band rate
N1081=,57600
;保存窗口宽度
N1082=,976
;保存窗口高度
N1083=,400
;保存窗口left
N1084=,546
;保存窗口top
N1085=,126
;分割线位置(右侧装多条自定义字符串的容器宽度)
N1086=,749
;多条发送按钮的宽度
N1087=,120
;保存窗口字体名称
N1088=,宋体
;保存窗口字体大小
N1089=,9
;保存窗口字体颜色
N1090=,0
;C:Chinese汉语,E:English
N1100=,汉语
;end